
T1924 000:038 SEGGER J-Link V6.12a Log File (0000ms, 0016ms total)
T1924 000:038 DLL Compiled: Dec  2 2016 16:44:26 (0001ms, 0017ms total)
T1924 000:038 Logging started @ 2021-09-03 11:12 (0001ms, 0017ms total)
T1924 000:039 JLINK_SetWarnOutHandler(...) (0000ms, 0017ms total)
T1924 000:039 JLINK_OpenEx(...)
Firmware: J-Link ARM V8 compiled Jan 31 2018 18:34:52
Hardware: V8.00
S/N: 20080643
Feature(s): RDI,FlashDL,FlashBP,JFlash,GDBFullWEBSRV Webserver running on local port 19080 (0010ms, 0027ms total)
T1924 000:039   returns O.K. (0010ms, 0027ms total)
T1924 000:049 JLINK_SetErrorOutHandler(...) (0000ms, 0027ms total)
T1924 000:049 JLINK_ExecCommand("ProjectFile = "D:\S282\S282_Gateway\JLinkSettings.ini"", ...). C:\Program Files (x86)\SEGGER\JLink_V612a\JLinkDevices.xml evaluated successfully.Device "CORTEX-M4" selected.  returns 0x00 (0090ms, 0117ms total)
T1924 000:140 JLINK_ExecCommand("Device = GD32E103CB", ...). Device "CORTEX-M4" selected.  returns 0x00 (0002ms, 0119ms total)
T1924 000:142 JLINK_ExecCommand("DisableConnectionTimeout", ...).   returns 0x01 (0000ms, 0119ms total)
T1924 000:142 JLINK_GetHardwareVersion()  returns 0x13880 (0000ms, 0119ms total)
T1924 000:142 JLINK_GetDLLVersion()  returns 61201 (0000ms, 0119ms total)
T1924 000:142 JLINK_GetFirmwareString(...) (0000ms, 0119ms total)
T1924 000:150 JLINK_GetDLLVersion()  returns 61201 (0000ms, 0119ms total)
T1924 000:150 JLINK_GetCompileDateTime() (0000ms, 0119ms total)
T1924 000:153 JLINK_GetFirmwareString(...) (0000ms, 0119ms total)
T1924 000:157 JLINK_GetHardwareVersion()  returns 0x13880 (0000ms, 0119ms total)
T1924 000:167 JLINK_TIF_Select(JLINKARM_TIF_SWD)  returns 0x00 (0002ms, 0121ms total)
T1924 000:169 JLINK_SetSpeed(500) (0000ms, 0121ms total)
T1924 000:169 JLINK_GetId() >0x108 TIF>Found SWD-DP with ID 0x2BA01477 >0x0D TIF> >0x28 TIF> >0x0D TIF> >0x28 TIF> >0x0D TIF> >0x28 TIF> >0x0D TIF> >0x28 TIF> >0x0D TIF> >0x21 TIF> >0x0D TIF> >0x28 TIF> >0x0D TIF> >0x28 TIF> >0x0D TIF> >0x21 TIF> >0x0D TIF> >0x21 TIF> >0x0D TIF> >0x21 TIF>AP-IDR: 0x24770011, Type: AHB-AP >0x0D TIF> >0x28 TIF> >0x0D TIF> >0x28 TIF> >0x0D TIF> >0x28 TIF> >0x0D TIF> >0x21 TIF> >0x0D TIF> >0x21 TIF> >0x0D TIF> >0x28 TIF> >0x0D TIF> >0x21 TIF> >0x0D TIF> >0x21 TIF>
Found Cortex-M4 r0p1, Little endian. >0x0D TIF> >0x28 TIF> -- CPU_ReadMem(4 bytes @ 0xE000EDF0) -- CPU_WriteMem(4 bytes @ 0xE000EDF0) -- CPU_ReadMem(4 bytes @ 0xE0002000)FPUnit: 6 code (BP) slots and 2 literal slots -- CPU_ReadMem(4 bytes @ 0xE000EDFC) -- CPU_WriteMem(4 bytes @ 0xE000EDFC) -- CPU_ReadMem(4 bytes @ 0xE0001000) -- CPU_WriteMem(4 bytes @ 0xE0001000) -- CPU_ReadMem(4 bytes @ 0xE000ED88) -- CPU_WriteMem(4 bytes @ 0xE000ED88) -- CPU_ReadMem(4 bytes @ 0xE000ED88)
 -- CPU_WriteMem(4 bytes @ 0xE000ED88)CoreSight components:ROMTbl 0 @ E00FF000 -- CPU_ReadMem(16 bytes @ 0xE00FF000) -- CPU_ReadMem(16 bytes @ 0xE000EFF0) -- CPU_ReadMem(16 bytes @ 0xE000EFE0)ROMTbl 0 [0]: FFF0F000, CID: B105E00D, PID: 000BB00C SCS -- CPU_ReadMem(16 bytes @ 0xE0001FF0) -- CPU_ReadMem(16 bytes @ 0xE0001FE0)ROMTbl 0 [1]: FFF02000, CID: B105E00D, PID: 003BB002 DWT -- CPU_ReadMem(16 bytes @ 0xE0002FF0) -- CPU_ReadMem(16 bytes @ 0xE0002FE0)
ROMTbl 0 [2]: FFF03000, CID: B105E00D, PID: 002BB003 FPB -- CPU_ReadMem(16 bytes @ 0xE0000FF0) -- CPU_ReadMem(16 bytes @ 0xE0000FE0)ROMTbl 0 [3]: FFF01000, CID: B105E00D, PID: 003BB001 ITM -- CPU_ReadMem(16 bytes @ 0xE00FF010) -- CPU_ReadMem(16 bytes @ 0xE0040FF0) -- CPU_ReadMem(16 bytes @ 0xE0040FE0)ROMTbl 0 [4]: FFF41000, CID: B105900D, PID: 000BB9A1 TPIU -- CPU_ReadMem(16 bytes @ 0xE0041FF0) -- CPU_ReadMem(16 bytes @ 0xE0041FE0)ROMTbl 0 [5]: FFF42000, CID: 00000000, PID: 00000000 ??? >0x0D TIF>
 >0x21 TIF>  returns 0x2BA01477 (0078ms, 0199ms total)
T1924 000:247 JLINK_GetDLLVersion()  returns 61201 (0000ms, 0199ms total)
T1924 000:247 JLINK_CORE_GetFound()  returns 0xE0000FF (0000ms, 0199ms total)
T1924 000:247 JLINK_GetDebugInfo(0x100) -- Value=0xE00FF000  returns 0x00 (0000ms, 0199ms total)
T1924 000:249 JLINK_ReadMem (0xE00FF000, 0x0020 Bytes, ...) -- CPU is running -- CPU_ReadMem(32 bytes @ 0xE00FF000) - Data: 03 F0 F0 FF 03 20 F0 FF 03 30 F0 FF 03 10 F0 FF ...  returns 0x00 (0002ms, 0201ms total)
T1924 000:251 JLINK_ReadMem (0xE000EFF0, 0x0010 Bytes, ...) -- CPU is running -- CPU_ReadMem(16 bytes @ 0xE000EFF0) - Data: 0D 00 00 00 E0 00 00 00 05 00 00 00 B1 00 00 00  returns 0x00 (0002ms, 0203ms total)
T1924 000:253 JLINK_ReadMem (0xE000EFD0, 0x0020 Bytes, ...) -- CPU is running -- CPU_ReadMem(32 bytes @ 0xE000EFD0) - Data: 04 00 00 00 00 00 00 00 00 00 00 00 00 00 00 00 ...  returns 0x00 (0002ms, 0205ms total)
T1924 000:255 JLINK_ReadMem (0xE0001FF0, 0x0010 Bytes, ...) -- CPU is running -- CPU_ReadMem(16 bytes @ 0xE0001FF0) - Data: 0D 00 00 00 E0 00 00 00 05 00 00 00 B1 00 00 00  returns 0x00 (0001ms, 0206ms total)
T1924 000:256 JLINK_ReadMem (0xE0001FD0, 0x0020 Bytes, ...) -- CPU is running -- CPU_ReadMem(32 bytes @ 0xE0001FD0) - Data: 04 00 00 00 00 00 00 00 00 00 00 00 00 00 00 00 ...  returns 0x00 (0002ms, 0208ms total)
T1924 000:258 JLINK_ReadMem (0xE0002FF0, 0x0010 Bytes, ...) -- CPU is running -- CPU_ReadMem(16 bytes @ 0xE0002FF0) - Data: 0D 00 00 00 E0 00 00 00 05 00 00 00 B1 00 00 00  returns 0x00 (0002ms, 0210ms total)
T1924 000:260 JLINK_ReadMem (0xE0002FD0, 0x0020 Bytes, ...) -- CPU is running -- CPU_ReadMem(32 bytes @ 0xE0002FD0) - Data: 04 00 00 00 00 00 00 00 00 00 00 00 00 00 00 00 ...  returns 0x00 (0001ms, 0211ms total)
T1924 000:261 JLINK_ReadMem (0xE0000FF0, 0x0010 Bytes, ...) -- CPU is running -- CPU_ReadMem(16 bytes @ 0xE0000FF0) - Data: 0D 00 00 00 E0 00 00 00 05 00 00 00 B1 00 00 00  returns 0x00 (0002ms, 0213ms total)
T1924 000:263 JLINK_ReadMem (0xE0000FD0, 0x0020 Bytes, ...) -- CPU is running -- CPU_ReadMem(32 bytes @ 0xE0000FD0) - Data: 04 00 00 00 00 00 00 00 00 00 00 00 00 00 00 00 ...  returns 0x00 (0001ms, 0214ms total)
T1924 000:264 JLINK_ReadMem (0xE0040FF0, 0x0010 Bytes, ...) -- CPU is running -- CPU_ReadMem(16 bytes @ 0xE0040FF0) - Data: 0D 00 00 00 90 00 00 00 05 00 00 00 B1 00 00 00  returns 0x00 (0002ms, 0216ms total)
T1924 000:266 JLINK_ReadMem (0xE0040FD0, 0x0020 Bytes, ...) -- CPU is running -- CPU_ReadMem(32 bytes @ 0xE0040FD0) - Data: 04 00 00 00 00 00 00 00 00 00 00 00 00 00 00 00 ...  returns 0x00 (0001ms, 0217ms total)
T1924 000:267 JLINK_ReadMem (0xE0041FF0, 0x0010 Bytes, ...) -- CPU is running -- CPU_ReadMem(16 bytes @ 0xE0041FF0) - Data: 00 00 00 00 00 00 00 00 00 00 00 00 00 00 00 00  returns 0x00 (0001ms, 0218ms total)
T1924 000:268 JLINK_ReadMem (0xE0041FD0, 0x0020 Bytes, ...) -- CPU is running -- CPU_ReadMem(32 bytes @ 0xE0041FD0) - Data: 00 00 00 00 00 00 00 00 00 00 00 00 00 00 00 00 ...  returns 0x00 (0002ms, 0220ms total)
T1924 000:270 JLINK_ReadMemU32(0xE000EF40, 0x0001 Items, ...) -- CPU is running -- CPU_ReadMem(4 bytes @ 0xE000EF40) - Data: 21 00 11 10  returns 0x01 (0001ms, 0221ms total)
T1924 000:271 JLINK_ReadMemU32(0xE000EF44, 0x0001 Items, ...) -- CPU is running -- CPU_ReadMem(4 bytes @ 0xE000EF44) - Data: 11 00 00 11  returns 0x01 (0000ms, 0221ms total)
T1924 000:271 JLINK_ReadMemU32(0xE000ED00, 0x0001 Items, ...) -- CPU is running -- CPU_ReadMem(4 bytes @ 0xE000ED00) - Data: 41 C2 0F 41  returns 0x01 (0001ms, 0222ms total)
T1924 000:272 JLINK_SetResetType(JLINKARM_CM3_RESET_TYPE_NORMAL)  returns JLINKARM_CM3_RESET_TYPE_NORMAL (0000ms, 0222ms total)
T1924 000:272 JLINK_Reset() -- CPU_WriteMem(4 bytes @ 0xE0002000) -- CPU_ReadMem(4 bytes @ 0xE000EDFC) -- CPU_WriteMem(4 bytes @ 0xE000EDFC) -- CPU_ReadMem(4 bytes @ 0xE0001000) (0027ms, 0249ms total)
T1924 000:299 JLINK_Halt()  returns 0x00 (0000ms, 0249ms total)
T1924 000:299 JLINK_IsHalted()  returns TRUE (0000ms, 0249ms total)
T1924 000:299 JLINK_ReadMemU32(0xE000EDF0, 0x0001 Items, ...) -- CPU_ReadMem(4 bytes @ 0xE000EDF0) - Data: 03 00 03 00  returns 0x01 (0001ms, 0250ms total)
T1924 000:300 JLINK_WriteU32(0xE000EDF0, 0xA05F0003) -- CPU_WriteMem(4 bytes @ 0xE000EDF0)  returns 0x00 (0001ms, 0251ms total)
T1924 000:301 JLINK_WriteU32(0xE000EDFC, 0x01000000) -- CPU_WriteMem(4 bytes @ 0xE000EDFC)  returns 0x00 (0001ms, 0252ms total)
T1924 000:313 JLINK_GetHWStatus(...)  returns 0x00 (0000ms, 0252ms total)
T1924 000:323 JLINK_GetNumBPUnits(Type = 0xFFFFFF00)  returns 0x06 (0000ms, 0252ms total)
T1924 000:323 JLINK_GetNumBPUnits(Type = 0xF0)  returns 0x2000 (0000ms, 0252ms total)
T1924 000:323 JLINK_GetNumWPUnits()  returns 0x04 (0000ms, 0252ms total)
T1924 000:332 JLINK_GetSpeed()  returns 0x1F4 (0000ms, 0252ms total)
T1924 000:338 JLINK_ReadMemU32(0xE000E004, 0x0001 Items, ...) -- CPU_ReadMem(4 bytes @ 0xE000E004) - Data: 02 00 00 00  returns 0x01 (0002ms, 0254ms total)
T1924 000:340 JLINK_ReadMemU32(0xE000E004, 0x0001 Items, ...) -- CPU_ReadMem(4 bytes @ 0xE000E004) - Data: 02 00 00 00  returns 0x01 (0000ms, 0254ms total)
T1924 000:340 JLINK_WriteMem(0xE0001000, 0x001C Bytes, ...) - Data: 01 00 00 00 00 00 00 00 00 00 00 00 00 00 00 00 ... -- CPU_WriteMem(28 bytes @ 0xE0001000)  returns 0x1C (0002ms, 0256ms total)
T1924 000:342 JLINK_ReadMem (0xE0001000, 0x001C Bytes, ...) -- CPU_ReadMem(28 bytes @ 0xE0001000) - Data: 01 00 00 40 00 00 00 00 00 00 00 00 00 00 00 00 ...  returns 0x00 (0001ms, 0257ms total)
T1924 000:343 JLINK_Halt()  returns 0x00 (0000ms, 0257ms total)
T1924 000:343 JLINK_IsHalted()  returns TRUE (0000ms, 0257ms total)
T1924 000:352 JLINK_WriteMem(0x20000000, 0x01B0 Bytes, ...) - Data: 00 BE 0A E0 0D 78 2D 06 68 40 08 24 40 00 00 D3 ... -- CPU_WriteMem(432 bytes @ 0x20000000)  returns 0x1B0 (0015ms, 0272ms total)
T1924 000:367 JLINK_WriteReg(R0, 0x08000000)  returns 0x00 (0000ms, 0272ms total)
T1924 000:367 JLINK_WriteReg(R1, 0x017D7840)  returns 0x00 (0000ms, 0272ms total)
T1924 000:367 JLINK_WriteReg(R2, 0x00000001)  returns 0x00 (0000ms, 0272ms total)
T1924 000:367 JLINK_WriteReg(R3, 0x00000000)  returns 0x00 (0000ms, 0272ms total)
T1924 000:367 JLINK_WriteReg(R4, 0x00000000)  returns 0x00 (0000ms, 0272ms total)
T1924 000:367 JLINK_WriteReg(R5, 0x00000000)  returns 0x00 (0000ms, 0272ms total)
T1924 000:367 JLINK_WriteReg(R6, 0x00000000)  returns 0x00 (0000ms, 0272ms total)
T1924 000:367 JLINK_WriteReg(R7, 0x00000000)  returns 0x00 (0000ms, 0272ms total)
T1924 000:367 JLINK_WriteReg(R8, 0x00000000)  returns 0x00 (0000ms, 0272ms total)
T1924 000:367 JLINK_WriteReg(R9, 0x200001A8)  returns 0x00 (0000ms, 0272ms total)
T1924 000:367 JLINK_WriteReg(R10, 0x00000000)  returns 0x00 (0000ms, 0272ms total)
T1924 000:367 JLINK_WriteReg(R11, 0x00000000)  returns 0x00 (0000ms, 0272ms total)
T1924 000:367 JLINK_WriteReg(R12, 0x00000000)  returns 0x00 (0000ms, 0272ms total)
T1924 000:367 JLINK_WriteReg(R13 (SP), 0x20001000)  returns 0x00 (0000ms, 0272ms total)
T1924 000:367 JLINK_WriteReg(R14, 0x20000001)  returns 0x00 (0000ms, 0272ms total)
T1924 000:367 JLINK_WriteReg(R15 (PC), 0x20000038)  returns 0x00 (0000ms, 0272ms total)
T1924 000:367 JLINK_WriteReg(XPSR, 0x01000000)  returns 0x00 (0000ms, 0272ms total)
T1924 000:367 JLINK_WriteReg(MSP, 0x20001000)  returns 0x00 (0000ms, 0272ms total)
T1924 000:367 JLINK_WriteReg(PSP, 0x20001000)  returns 0x00 (0000ms, 0272ms total)
T1924 000:367 JLINK_WriteReg(CFBP, 0x00000000)  returns 0x00 (0000ms, 0272ms total)
T1924 000:367 JLINK_SetBPEx(Addr = 0x20000000, Type = 0xFFFFFFF2) -- CPU_ReadMem(4 bytes @ 0x20000000) -- CPU_WriteMem(4 bytes @ 0x20000000) -- CPU_ReadMem(4 bytes @ 0x20000000) -- CPU_WriteMem(4 bytes @ 0x20000000) -- CPU_ReadMem(2 bytes @ 0x20000000)  returns 0x00000001 (0005ms, 0277ms total)
T1924 000:372 JLINK_Go() -- CPU_WriteMem(2 bytes @ 0x20000000) -- CPU_WriteMem(4 bytes @ 0xE0002008) -- CPU_WriteMem(4 bytes @ 0xE000200C) -- CPU_WriteMem(4 bytes @ 0xE0002010) -- CPU_WriteMem(4 bytes @ 0xE0002014) -- CPU_WriteMem(4 bytes @ 0xE0002018) -- CPU_WriteMem(4 bytes @ 0xE000201C) -- CPU_ReadMem(4 bytes @ 0xE0001000) -- CPU_WriteMem(4 bytes @ 0xE0001004) (0014ms, 0291ms total)
T1924 000:386 JLINK_IsHalted() -- CPU_ReadMem(2 bytes @ 0x20000000)  returns TRUE (0009ms, 0300ms total)
T1924 000:395 JLINK_ReadReg(R15 (PC))  returns 0x20000000 (0001ms, 0292ms total)
T1924 000:396 JLINK_ClrBPEx(BPHandle = 0x00000001)  returns 0x00 (0000ms, 0292ms total)
T1924 000:396 JLINK_ReadReg(R0)  returns 0x00000000 (0000ms, 0292ms total)
T1924 000:398 JLINK_WriteReg(R0, 0x08000000)  returns 0x00 (0000ms, 0292ms total)
T1924 000:398 JLINK_WriteReg(R1, 0x017D7840)  returns 0x00 (0000ms, 0292ms total)
T1924 000:398 JLINK_WriteReg(R2, 0x00000001)  returns 0x00 (0000ms, 0292ms total)
T1924 000:398 JLINK_WriteReg(R3, 0x00000000)  returns 0x00 (0000ms, 0292ms total)
T1924 000:398 JLINK_WriteReg(R4, 0x00000000)  returns 0x00 (0000ms, 0292ms total)
T1924 000:398 JLINK_WriteReg(R5, 0x00000000)  returns 0x00 (0000ms, 0292ms total)
T1924 000:398 JLINK_WriteReg(R6, 0x00000000)  returns 0x00 (0001ms, 0293ms total)
T1924 000:399 JLINK_WriteReg(R7, 0x00000000)  returns 0x00 (0000ms, 0293ms total)
T1924 000:399 JLINK_WriteReg(R8, 0x00000000)  returns 0x00 (0000ms, 0293ms total)
T1924 000:399 JLINK_WriteReg(R9, 0x200001A8)  returns 0x00 (0000ms, 0293ms total)
T1924 000:399 JLINK_WriteReg(R10, 0x00000000)  returns 0x00 (0000ms, 0293ms total)
T1924 000:399 JLINK_WriteReg(R11, 0x00000000)  returns 0x00 (0000ms, 0293ms total)
T1924 000:399 JLINK_WriteReg(R12, 0x00000000)  returns 0x00 (0000ms, 0293ms total)
T1924 000:399 JLINK_WriteReg(R13 (SP), 0x20001000)  returns 0x00 (0000ms, 0293ms total)
T1924 000:399 JLINK_WriteReg(R14, 0x20000001)  returns 0x00 (0000ms, 0293ms total)
T1924 000:399 JLINK_WriteReg(R15 (PC), 0x20000086)  returns 0x00 (0000ms, 0293ms total)
T1924 000:399 JLINK_WriteReg(XPSR, 0x01000000)  returns 0x00 (0000ms, 0293ms total)
T1924 000:399 JLINK_WriteReg(MSP, 0x20001000)  returns 0x00 (0001ms, 0294ms total)
T1924 000:400 JLINK_WriteReg(PSP, 0x20001000)  returns 0x00 (0000ms, 0294ms total)
T1924 000:400 JLINK_WriteReg(CFBP, 0x00000000)  returns 0x00 (0000ms, 0294ms total)
T1924 000:400 JLINK_SetBPEx(Addr = 0x20000000, Type = 0xFFFFFFF2)  returns 0x00000002 (0000ms, 0294ms total)
T1924 000:400 JLINK_Go() -- CPU_ReadMem(4 bytes @ 0xE0001000) (0004ms, 0298ms total)
T1924 000:404 JLINK_IsHalted()  returns FALSE (0001ms, 0299ms total)
T1924 000:465 JLINK_IsHalted() -- CPU_ReadMem(2 bytes @ 0x20000000)  returns TRUE (0009ms, 0307ms total)
T1924 000:474 JLINK_ReadReg(R15 (PC))  returns 0x20000000 (0000ms, 0298ms total)
T1924 000:474 JLINK_ClrBPEx(BPHandle = 0x00000002)  returns 0x00 (0000ms, 0298ms total)
T1924 000:474 JLINK_ReadReg(R0)  returns 0x00000000 (0000ms, 0298ms total)
T1924 000:528 JLINK_WriteReg(R0, 0x00000001)  returns 0x00 (0000ms, 0298ms total)
T1924 000:528 JLINK_WriteReg(R1, 0x017D7840)  returns 0x00 (0000ms, 0298ms total)
T1924 000:528 JLINK_WriteReg(R2, 0x00000001)  returns 0x00 (0000ms, 0298ms total)
T1924 000:528 JLINK_WriteReg(R3, 0x00000000)  returns 0x00 (0001ms, 0299ms total)
T1924 000:529 JLINK_WriteReg(R4, 0x00000000)  returns 0x00 (0000ms, 0299ms total)
T1924 000:529 JLINK_WriteReg(R5, 0x00000000)  returns 0x00 (0000ms, 0299ms total)
T1924 000:529 JLINK_WriteReg(R6, 0x00000000)  returns 0x00 (0000ms, 0299ms total)
T1924 000:529 JLINK_WriteReg(R7, 0x00000000)  returns 0x00 (0000ms, 0299ms total)
T1924 000:529 JLINK_WriteReg(R8, 0x00000000)  returns 0x00 (0000ms, 0299ms total)
T1924 000:529 JLINK_WriteReg(R9, 0x200001A8)  returns 0x00 (0000ms, 0299ms total)
T1924 000:529 JLINK_WriteReg(R10, 0x00000000)  returns 0x00 (0000ms, 0299ms total)
T1924 000:529 JLINK_WriteReg(R11, 0x00000000)  returns 0x00 (0000ms, 0299ms total)
T1924 000:529 JLINK_WriteReg(R12, 0x00000000)  returns 0x00 (0000ms, 0299ms total)
T1924 000:529 JLINK_WriteReg(R13 (SP), 0x20001000)  returns 0x00 (0000ms, 0299ms total)
T1924 000:530 JLINK_WriteReg(R14, 0x20000001)  returns 0x00 (0000ms, 0299ms total)
T1924 000:530 JLINK_WriteReg(R15 (PC), 0x20000074)  returns 0x00 (0000ms, 0299ms total)
T1924 000:530 JLINK_WriteReg(XPSR, 0x01000000)  returns 0x00 (0000ms, 0299ms total)
T1924 000:530 JLINK_WriteReg(MSP, 0x20001000)  returns 0x00 (0000ms, 0299ms total)
T1924 000:530 JLINK_WriteReg(PSP, 0x20001000)  returns 0x00 (0000ms, 0299ms total)
T1924 000:530 JLINK_WriteReg(CFBP, 0x00000000)  returns 0x00 (0000ms, 0299ms total)
T1924 000:530 JLINK_SetBPEx(Addr = 0x20000000, Type = 0xFFFFFFF2)  returns 0x00000003 (0000ms, 0299ms total)
T1924 000:530 JLINK_Go() -- CPU_ReadMem(4 bytes @ 0xE0001000) (0005ms, 0304ms total)
T1924 000:535 JLINK_IsHalted() -- CPU_ReadMem(2 bytes @ 0x20000000)  returns TRUE (0009ms, 0313ms total)
T1924 000:544 JLINK_ReadReg(R15 (PC))  returns 0x20000000 (0001ms, 0305ms total)
T1924 000:545 JLINK_ClrBPEx(BPHandle = 0x00000003)  returns 0x00 (0000ms, 0305ms total)
T1924 000:545 JLINK_ReadReg(R0)  returns 0x00000000 (0000ms, 0305ms total)
T1924 000:558 JLINK_WriteMem(0x20000000, 0x01B0 Bytes, ...) - Data: 00 BE 0A E0 0D 78 2D 06 68 40 08 24 40 00 00 D3 ... -- CPU_WriteMem(432 bytes @ 0x20000000)  returns 0x1B0 (0014ms, 0319ms total)
T1924 000:572 JLINK_WriteReg(R0, 0x08000000)  returns 0x00 (0000ms, 0319ms total)
T1924 000:572 JLINK_WriteReg(R1, 0x017D7840)  returns 0x00 (0000ms, 0319ms total)
T1924 000:572 JLINK_WriteReg(R2, 0x00000002)  returns 0x00 (0000ms, 0319ms total)
T1924 000:572 JLINK_WriteReg(R3, 0x00000000)  returns 0x00 (0000ms, 0319ms total)
T1924 000:572 JLINK_WriteReg(R4, 0x00000000)  returns 0x00 (0000ms, 0319ms total)
T1924 000:572 JLINK_WriteReg(R5, 0x00000000)  returns 0x00 (0000ms, 0319ms total)
T1924 000:572 JLINK_WriteReg(R6, 0x00000000)  returns 0x00 (0000ms, 0319ms total)
T1924 000:572 JLINK_WriteReg(R7, 0x00000000)  returns 0x00 (0000ms, 0319ms total)
T1924 000:572 JLINK_WriteReg(R8, 0x00000000)  returns 0x00 (0000ms, 0319ms total)
T1924 000:572 JLINK_WriteReg(R9, 0x200001A8)  returns 0x00 (0000ms, 0319ms total)
T1924 000:572 JLINK_WriteReg(R10, 0x00000000)  returns 0x00 (0000ms, 0319ms total)
T1924 000:572 JLINK_WriteReg(R11, 0x00000000)  returns 0x00 (0000ms, 0319ms total)
T1924 000:572 JLINK_WriteReg(R12, 0x00000000)  returns 0x00 (0000ms, 0319ms total)
T1924 000:572 JLINK_WriteReg(R13 (SP), 0x20001000)  returns 0x00 (0000ms, 0319ms total)
T1924 000:572 JLINK_WriteReg(R14, 0x20000001)  returns 0x00 (0000ms, 0319ms total)
T1924 000:572 JLINK_WriteReg(R15 (PC), 0x20000038)  returns 0x00 (0000ms, 0319ms total)
T1924 000:572 JLINK_WriteReg(XPSR, 0x01000000)  returns 0x00 (0000ms, 0319ms total)
T1924 000:572 JLINK_WriteReg(MSP, 0x20001000)  returns 0x00 (0000ms, 0319ms total)
T1924 000:572 JLINK_WriteReg(PSP, 0x20001000)  returns 0x00 (0000ms, 0319ms total)
T1924 000:572 JLINK_WriteReg(CFBP, 0x00000000)  returns 0x00 (0000ms, 0319ms total)
T1924 000:572 JLINK_SetBPEx(Addr = 0x20000000, Type = 0xFFFFFFF2) -- CPU_ReadMem(4 bytes @ 0x20000000) -- CPU_WriteMem(4 bytes @ 0x20000000) -- CPU_ReadMem(4 bytes @ 0x20000000) -- CPU_WriteMem(4 bytes @ 0x20000000) -- CPU_ReadMem(2 bytes @ 0x20000000)  returns 0x00000004 (0004ms, 0323ms total)
T1924 000:576 JLINK_Go() -- CPU_WriteMem(2 bytes @ 0x20000000) -- CPU_ReadMem(4 bytes @ 0xE0001000) (0006ms, 0329ms total)
T1924 000:582 JLINK_IsHalted() -- CPU_ReadMem(2 bytes @ 0x20000000)  returns TRUE (0009ms, 0338ms total)
T1924 000:591 JLINK_ReadReg(R15 (PC))  returns 0x20000000 (0000ms, 0329ms total)
T1924 000:591 JLINK_ClrBPEx(BPHandle = 0x00000004)  returns 0x00 (0000ms, 0329ms total)
T1924 000:591 JLINK_ReadReg(R0)  returns 0x00000000 (0000ms, 0329ms total)
T1924 000:591 JLINK_WriteMem(0x200001B0, 0x0400 Bytes, ...) - Data: 18 79 00 20 65 01 00 08 F5 99 00 08 31 79 00 08 ... -- CPU_WriteMem(1024 bytes @ 0x200001B0)  returns 0x400 (0031ms, 0360ms total)
T1924 000:622 JLINK_WriteReg(R0, 0x08000000)  returns 0x00 (0000ms, 0360ms total)
T1924 000:622 JLINK_WriteReg(R1, 0x00000400)  returns 0x00 (0000ms, 0360ms total)
T1924 000:622 JLINK_WriteReg(R2, 0x200001B0)  returns 0x00 (0000ms, 0360ms total)
T1924 000:622 JLINK_WriteReg(R3, 0x00000000)  returns 0x00 (0000ms, 0360ms total)
T1924 000:622 JLINK_WriteReg(R4, 0x00000000)  returns 0x00 (0000ms, 0360ms total)
T1924 000:622 JLINK_WriteReg(R5, 0x00000000)  returns 0x00 (0000ms, 0360ms total)
T1924 000:622 JLINK_WriteReg(R6, 0x00000000)  returns 0x00 (0000ms, 0360ms total)
T1924 000:622 JLINK_WriteReg(R7, 0x00000000)  returns 0x00 (0000ms, 0360ms total)
T1924 000:622 JLINK_WriteReg(R8, 0x00000000)  returns 0x00 (0000ms, 0360ms total)
T1924 000:622 JLINK_WriteReg(R9, 0x200001A8)  returns 0x00 (0000ms, 0360ms total)
T1924 000:622 JLINK_WriteReg(R10, 0x00000000)  returns 0x00 (0000ms, 0360ms total)
T1924 000:622 JLINK_WriteReg(R11, 0x00000000)  returns 0x00 (0000ms, 0360ms total)
T1924 000:622 JLINK_WriteReg(R12, 0x00000000)  returns 0x00 (0000ms, 0360ms total)
T1924 000:622 JLINK_WriteReg(R13 (SP), 0x20001000)  returns 0x00 (0000ms, 0360ms total)
T1924 000:622 JLINK_WriteReg(R14, 0x20000001)  returns 0x00 (0000ms, 0360ms total)
T1924 000:622 JLINK_WriteReg(R15 (PC), 0x20000102)  returns 0x00 (0000ms, 0360ms total)
T1924 000:622 JLINK_WriteReg(XPSR, 0x01000000)  returns 0x00 (0000ms, 0360ms total)
T1924 000:622 JLINK_WriteReg(MSP, 0x20001000)  returns 0x00 (0000ms, 0360ms total)
T1924 000:622 JLINK_WriteReg(PSP, 0x20001000)  returns 0x00 (0000ms, 0360ms total)
T1924 000:622 JLINK_WriteReg(CFBP, 0x00000000)  returns 0x00 (0000ms, 0360ms total)
T1924 000:622 JLINK_SetBPEx(Addr = 0x20000000, Type = 0xFFFFFFF2)  returns 0x00000005 (0000ms, 0360ms total)
T1924 000:622 JLINK_Go() -- CPU_ReadMem(4 bytes @ 0xE0001000) (0005ms, 0365ms total)
T1924 000:627 JLINK_IsHalted()  returns FALSE (0001ms, 0366ms total)
T1924 000:643 JLINK_IsHalted() -- CPU_ReadMem(2 bytes @ 0x20000000)  returns TRUE (0009ms, 0374ms total)
T1924 000:652 JLINK_ReadReg(R15 (PC))  returns 0x20000000 (0000ms, 0365ms total)
T1924 000:652 JLINK_ClrBPEx(BPHandle = 0x00000005)  returns 0x00 (0000ms, 0365ms total)
T1924 000:652 JLINK_ReadReg(R0)  returns 0x00000000 (0000ms, 0365ms total)
T1924 000:652 JLINK_WriteMem(0x200001B0, 0x0400 Bytes, ...) - Data: 02 44 00 FB 03 4E 84 0A 97 0A 44 EA 81 54 47 EA ... -- CPU_WriteMem(1024 bytes @ 0x200001B0)  returns 0x400 (0031ms, 0396ms total)
T1924 000:683 JLINK_WriteReg(R0, 0x08000400)  returns 0x00 (0000ms, 0396ms total)
T1924 000:683 JLINK_WriteReg(R1, 0x00000400)  returns 0x00 (0000ms, 0396ms total)
T1924 000:683 JLINK_WriteReg(R2, 0x200001B0)  returns 0x00 (0000ms, 0396ms total)
T1924 000:683 JLINK_WriteReg(R3, 0x00000000)  returns 0x00 (0001ms, 0397ms total)
T1924 000:684 JLINK_WriteReg(R4, 0x00000000)  returns 0x00 (0000ms, 0397ms total)
T1924 000:684 JLINK_WriteReg(R5, 0x00000000)  returns 0x00 (0000ms, 0397ms total)
T1924 000:684 JLINK_WriteReg(R6, 0x00000000)  returns 0x00 (0000ms, 0397ms total)
T1924 000:684 JLINK_WriteReg(R7, 0x00000000)  returns 0x00 (0000ms, 0397ms total)
T1924 000:684 JLINK_WriteReg(R8, 0x00000000)  returns 0x00 (0000ms, 0397ms total)
T1924 000:684 JLINK_WriteReg(R9, 0x200001A8)  returns 0x00 (0000ms, 0397ms total)
T1924 000:684 JLINK_WriteReg(R10, 0x00000000)  returns 0x00 (0000ms, 0397ms total)
T1924 000:684 JLINK_WriteReg(R11, 0x00000000)  returns 0x00 (0000ms, 0397ms total)
T1924 000:684 JLINK_WriteReg(R12, 0x00000000)  returns 0x00 (0000ms, 0397ms total)
T1924 000:684 JLINK_WriteReg(R13 (SP), 0x20001000)  returns 0x00 (0000ms, 0397ms total)
T1924 000:684 JLINK_WriteReg(R14, 0x20000001)  returns 0x00 (0001ms, 0398ms total)
T1924 000:685 JLINK_WriteReg(R15 (PC), 0x20000102)  returns 0x00 (0000ms, 0398ms total)
T1924 000:685 JLINK_WriteReg(XPSR, 0x01000000)  returns 0x00 (0000ms, 0398ms total)
T1924 000:685 JLINK_WriteReg(MSP, 0x20001000)  returns 0x00 (0000ms, 0398ms total)
T1924 000:685 JLINK_WriteReg(PSP, 0x20001000)  returns 0x00 (0000ms, 0398ms total)
T1924 000:685 JLINK_WriteReg(CFBP, 0x00000000)  returns 0x00 (0000ms, 0398ms total)
T1924 000:685 JLINK_SetBPEx(Addr = 0x20000000, Type = 0xFFFFFFF2)  returns 0x00000006 (0000ms, 0398ms total)
T1924 000:685 JLINK_Go() -- CPU_ReadMem(4 bytes @ 0xE0001000) (0005ms, 0403ms total)
T1924 000:690 JLINK_IsHalted()  returns FALSE (0001ms, 0404ms total)
T1924 000:698 JLINK_IsHalted()  returns FALSE (0001ms, 0404ms total)
T1924 000:700 JLINK_IsHalted()  returns FALSE (0000ms, 0403ms total)
T1924 000:702 JLINK_IsHalted() -- CPU_ReadMem(2 bytes @ 0x20000000)  returns TRUE (0009ms, 0412ms total)
T1924 000:711 JLINK_ReadReg(R15 (PC))  returns 0x20000000 (0000ms, 0403ms total)
T1924 000:711 JLINK_ClrBPEx(BPHandle = 0x00000006)  returns 0x00 (0000ms, 0403ms total)
T1924 000:711 JLINK_ReadReg(R0)  returns 0x00000000 (0000ms, 0403ms total)
T1924 000:711 JLINK_WriteMem(0x200001B0, 0x0400 Bytes, ...) - Data: 06 4C 07 4D 06 E0 E0 68 40 F0 01 03 94 E8 07 00 ... -- CPU_WriteMem(1024 bytes @ 0x200001B0)  returns 0x400 (0031ms, 0434ms total)
T1924 000:743 JLINK_WriteReg(R0, 0x08000800)  returns 0x00 (0000ms, 0434ms total)
T1924 000:743 JLINK_WriteReg(R1, 0x00000400)  returns 0x00 (0000ms, 0434ms total)
T1924 000:743 JLINK_WriteReg(R2, 0x200001B0)  returns 0x00 (0000ms, 0434ms total)
T1924 000:743 JLINK_WriteReg(R3, 0x00000000)  returns 0x00 (0000ms, 0434ms total)
T1924 000:743 JLINK_WriteReg(R4, 0x00000000)  returns 0x00 (0000ms, 0434ms total)
T1924 000:743 JLINK_WriteReg(R5, 0x00000000)  returns 0x00 (0000ms, 0434ms total)
T1924 000:743 JLINK_WriteReg(R6, 0x00000000)  returns 0x00 (0000ms, 0434ms total)
T1924 000:743 JLINK_WriteReg(R7, 0x00000000)  returns 0x00 (0000ms, 0434ms total)
T1924 000:743 JLINK_WriteReg(R8, 0x00000000)  returns 0x00 (0000ms, 0434ms total)
T1924 000:743 JLINK_WriteReg(R9, 0x200001A8)  returns 0x00 (0000ms, 0434ms total)
T1924 000:743 JLINK_WriteReg(R10, 0x00000000)  returns 0x00 (0000ms, 0434ms total)
T1924 000:743 JLINK_WriteReg(R11, 0x00000000)  returns 0x00 (0000ms, 0434ms total)
T1924 000:743 JLINK_WriteReg(R12, 0x00000000)  returns 0x00 (0000ms, 0434ms total)
T1924 000:743 JLINK_WriteReg(R13 (SP), 0x20001000)  returns 0x00 (0000ms, 0434ms total)
T1924 000:743 JLINK_WriteReg(R14, 0x20000001)  returns 0x00 (0000ms, 0434ms total)
T1924 000:743 JLINK_WriteReg(R15 (PC), 0x20000102)  returns 0x00 (0000ms, 0434ms total)
T1924 000:743 JLINK_WriteReg(XPSR, 0x01000000)  returns 0x00 (0000ms, 0434ms total)
T1924 000:743 JLINK_WriteReg(MSP, 0x20001000)  returns 0x00 (0000ms, 0434ms total)
T1924 000:743 JLINK_WriteReg(PSP, 0x20001000)  returns 0x00 (0000ms, 0434ms total)
T1924 000:743 JLINK_WriteReg(CFBP, 0x00000000)  returns 0x00 (0000ms, 0434ms total)
T1924 000:743 JLINK_SetBPEx(Addr = 0x20000000, Type = 0xFFFFFFF2)  returns 0x00000007 (0000ms, 0434ms total)
T1924 000:743 JLINK_Go() -- CPU_ReadMem(4 bytes @ 0xE0001000) (0004ms, 0438ms total)
T1924 000:747 JLINK_IsHalted()  returns FALSE (0001ms, 0439ms total)
T1924 000:752 JLINK_IsHalted()  returns FALSE (0001ms, 0439ms total)
T1924 000:754 JLINK_IsHalted()  returns FALSE (0000ms, 0438ms total)
T1924 000:756 JLINK_IsHalted()  returns FALSE (0001ms, 0439ms total)
T1924 000:759 JLINK_IsHalted() -- CPU_ReadMem(2 bytes @ 0x20000000)  returns TRUE (0009ms, 0447ms total)
T1924 000:769 JLINK_ReadReg(R15 (PC))  returns 0x20000000 (0000ms, 0438ms total)
T1924 000:769 JLINK_ClrBPEx(BPHandle = 0x00000007)  returns 0x00 (0000ms, 0438ms total)
T1924 000:769 JLINK_ReadReg(R0)  returns 0x00000000 (0000ms, 0438ms total)
T1924 000:769 JLINK_WriteMem(0x200001B0, 0x0400 Bytes, ...) - Data: 66 6C 61 67 00 00 00 00 6D 71 74 74 20 63 61 6E ... -- CPU_WriteMem(1024 bytes @ 0x200001B0)  returns 0x400 (0031ms, 0469ms total)
T1924 000:800 JLINK_WriteReg(R0, 0x08000C00)  returns 0x00 (0000ms, 0469ms total)
T1924 000:800 JLINK_WriteReg(R1, 0x00000400)  returns 0x00 (0000ms, 0469ms total)
T1924 000:800 JLINK_WriteReg(R2, 0x200001B0)  returns 0x00 (0000ms, 0469ms total)
T1924 000:800 JLINK_WriteReg(R3, 0x00000000)  returns 0x00 (0001ms, 0470ms total)
T1924 000:801 JLINK_WriteReg(R4, 0x00000000)  returns 0x00 (0000ms, 0470ms total)
T1924 000:801 JLINK_WriteReg(R5, 0x00000000)  returns 0x00 (0000ms, 0470ms total)
T1924 000:801 JLINK_WriteReg(R6, 0x00000000)  returns 0x00 (0000ms, 0470ms total)
T1924 000:801 JLINK_WriteReg(R7, 0x00000000)  returns 0x00 (0000ms, 0470ms total)
T1924 000:801 JLINK_WriteReg(R8, 0x00000000)  returns 0x00 (0000ms, 0470ms total)
T1924 000:801 JLINK_WriteReg(R9, 0x200001A8)  returns 0x00 (0000ms, 0470ms total)
T1924 000:801 JLINK_WriteReg(R10, 0x00000000)  returns 0x00 (0000ms, 0470ms total)
T1924 000:801 JLINK_WriteReg(R11, 0x00000000)  returns 0x00 (0000ms, 0470ms total)
T1924 000:801 JLINK_WriteReg(R12, 0x00000000)  returns 0x00 (0000ms, 0470ms total)
T1924 000:801 JLINK_WriteReg(R13 (SP), 0x20001000)  returns 0x00 (0000ms, 0470ms total)
T1924 000:802 JLINK_WriteReg(R14, 0x20000001)  returns 0x00 (0000ms, 0471ms total)
T1924 000:802 JLINK_WriteReg(R15 (PC), 0x20000102)  returns 0x00 (0000ms, 0471ms total)
T1924 000:802 JLINK_WriteReg(XPSR, 0x01000000)  returns 0x00 (0000ms, 0471ms total)
T1924 000:802 JLINK_WriteReg(MSP, 0x20001000)  returns 0x00 (0000ms, 0471ms total)
T1924 000:802 JLINK_WriteReg(PSP, 0x20001000)  returns 0x00 (0000ms, 0471ms total)
T1924 000:802 JLINK_WriteReg(CFBP, 0x00000000)  returns 0x00 (0000ms, 0471ms total)
T1924 000:802 JLINK_SetBPEx(Addr = 0x20000000, Type = 0xFFFFFFF2)  returns 0x00000008 (0000ms, 0471ms total)
T1924 000:802 JLINK_Go() -- CPU_ReadMem(4 bytes @ 0xE0001000) (0005ms, 0476ms total)
T1924 000:807 JLINK_IsHalted()  returns FALSE (0001ms, 0477ms total)
T1924 000:822 JLINK_IsHalted() -- CPU_ReadMem(2 bytes @ 0x20000000)  returns TRUE (0009ms, 0485ms total)
T1924 000:831 JLINK_ReadReg(R15 (PC))  returns 0x20000000 (0000ms, 0476ms total)
T1924 000:831 JLINK_ClrBPEx(BPHandle = 0x00000008)  returns 0x00 (0000ms, 0476ms total)
T1924 000:831 JLINK_ReadReg(R0)  returns 0x00000000 (0000ms, 0476ms total)
T1924 000:831 JLINK_WriteMem(0x200001B0, 0x0400 Bytes, ...) - Data: 15 01 88 42 F5 DA A6 F5 27 40 F8 38 1F FA 80 F8 ... -- CPU_WriteMem(1024 bytes @ 0x200001B0)  returns 0x400 (0031ms, 0507ms total)
T1924 000:862 JLINK_WriteReg(R0, 0x08001000)  returns 0x00 (0000ms, 0507ms total)
T1924 000:862 JLINK_WriteReg(R1, 0x00000400)  returns 0x00 (0000ms, 0507ms total)
T1924 000:862 JLINK_WriteReg(R2, 0x200001B0)  returns 0x00 (0000ms, 0507ms total)
T1924 000:862 JLINK_WriteReg(R3, 0x00000000)  returns 0x00 (0000ms, 0507ms total)
T1924 000:862 JLINK_WriteReg(R4, 0x00000000)  returns 0x00 (0000ms, 0507ms total)
T1924 000:862 JLINK_WriteReg(R5, 0x00000000)  returns 0x00 (0000ms, 0507ms total)
T1924 000:862 JLINK_WriteReg(R6, 0x00000000)  returns 0x00 (0000ms, 0507ms total)
T1924 000:862 JLINK_WriteReg(R7, 0x00000000)  returns 0x00 (0000ms, 0507ms total)
T1924 000:862 JLINK_WriteReg(R8, 0x00000000)  returns 0x00 (0000ms, 0507ms total)
T1924 000:862 JLINK_WriteReg(R9, 0x200001A8)  returns 0x00 (0000ms, 0507ms total)
T1924 000:862 JLINK_WriteReg(R10, 0x00000000)  returns 0x00 (0000ms, 0507ms total)
T1924 000:862 JLINK_WriteReg(R11, 0x00000000)  returns 0x00 (0000ms, 0507ms total)
T1924 000:862 JLINK_WriteReg(R12, 0x00000000)  returns 0x00 (0000ms, 0507ms total)
T1924 000:862 JLINK_WriteReg(R13 (SP), 0x20001000)  returns 0x00 (0000ms, 0507ms total)
T1924 000:862 JLINK_WriteReg(R14, 0x20000001)  returns 0x00 (0000ms, 0507ms total)
T1924 000:862 JLINK_WriteReg(R15 (PC), 0x20000102)  returns 0x00 (0000ms, 0507ms total)
T1924 000:862 JLINK_WriteReg(XPSR, 0x01000000)  returns 0x00 (0000ms, 0507ms total)
T1924 000:862 JLINK_WriteReg(MSP, 0x20001000)  returns 0x00 (0000ms, 0507ms total)
T1924 000:862 JLINK_WriteReg(PSP, 0x20001000)  returns 0x00 (0000ms, 0507ms total)
T1924 000:862 JLINK_WriteReg(CFBP, 0x00000000)  returns 0x00 (0000ms, 0507ms total)
T1924 000:862 JLINK_SetBPEx(Addr = 0x20000000, Type = 0xFFFFFFF2)  returns 0x00000009 (0000ms, 0507ms total)
T1924 000:862 JLINK_Go() -- CPU_ReadMem(4 bytes @ 0xE0001000) (0005ms, 0512ms total)
T1924 000:867 JLINK_IsHalted()  returns FALSE (0001ms, 0513ms total)
T1924 000:871 JLINK_IsHalted()  returns FALSE (0001ms, 0513ms total)
T1924 000:874 JLINK_IsHalted()  returns FALSE (0000ms, 0512ms total)
T1924 000:876 JLINK_IsHalted()  returns FALSE (0001ms, 0513ms total)
T1924 000:879 JLINK_IsHalted() -- CPU_ReadMem(2 bytes @ 0x20000000)  returns TRUE (0009ms, 0521ms total)
T1924 000:888 JLINK_ReadReg(R15 (PC))  returns 0x20000000 (0000ms, 0512ms total)
T1924 000:888 JLINK_ClrBPEx(BPHandle = 0x00000009)  returns 0x00 (0000ms, 0512ms total)
T1924 000:888 JLINK_ReadReg(R0)  returns 0x00000000 (0000ms, 0512ms total)
T1924 000:890 JLINK_WriteMem(0x200001B0, 0x0400 Bytes, ...) - Data: 68 71 1C 48 00 68 80 78 28 72 1A 48 00 68 C0 78 ... -- CPU_WriteMem(1024 bytes @ 0x200001B0)  returns 0x400 (0031ms, 0543ms total)
T1924 000:921 JLINK_WriteReg(R0, 0x08001400)  returns 0x00 (0000ms, 0543ms total)
T1924 000:921 JLINK_WriteReg(R1, 0x00000400)  returns 0x00 (0000ms, 0543ms total)
T1924 000:921 JLINK_WriteReg(R2, 0x200001B0)  returns 0x00 (0000ms, 0543ms total)
T1924 000:921 JLINK_WriteReg(R3, 0x00000000)  returns 0x00 (0000ms, 0543ms total)
T1924 000:921 JLINK_WriteReg(R4, 0x00000000)  returns 0x00 (0000ms, 0543ms total)
T1924 000:921 JLINK_WriteReg(R5, 0x00000000)  returns 0x00 (0000ms, 0543ms total)
T1924 000:921 JLINK_WriteReg(R6, 0x00000000)  returns 0x00 (0000ms, 0543ms total)
T1924 000:921 JLINK_WriteReg(R7, 0x00000000)  returns 0x00 (0000ms, 0543ms total)
T1924 000:921 JLINK_WriteReg(R8, 0x00000000)  returns 0x00 (0000ms, 0543ms total)
T1924 000:921 JLINK_WriteReg(R9, 0x200001A8)  returns 0x00 (0000ms, 0543ms total)
T1924 000:921 JLINK_WriteReg(R10, 0x00000000)  returns 0x00 (0000ms, 0543ms total)
T1924 000:921 JLINK_WriteReg(R11, 0x00000000)  returns 0x00 (0000ms, 0543ms total)
T1924 000:921 JLINK_WriteReg(R12, 0x00000000)  returns 0x00 (0000ms, 0543ms total)
T1924 000:921 JLINK_WriteReg(R13 (SP), 0x20001000)  returns 0x00 (0000ms, 0543ms total)
T1924 000:921 JLINK_WriteReg(R14, 0x20000001)  returns 0x00 (0000ms, 0543ms total)
T1924 000:921 JLINK_WriteReg(R15 (PC), 0x20000102)  returns 0x00 (0000ms, 0543ms total)
T1924 000:921 JLINK_WriteReg(XPSR, 0x01000000)  returns 0x00 (0000ms, 0543ms total)
T1924 000:921 JLINK_WriteReg(MSP, 0x20001000)  returns 0x00 (0000ms, 0543ms total)
T1924 000:921 JLINK_WriteReg(PSP, 0x20001000)  returns 0x00 (0000ms, 0543ms total)
T1924 000:921 JLINK_WriteReg(CFBP, 0x00000000)  returns 0x00 (0000ms, 0543ms total)
T1924 000:921 JLINK_SetBPEx(Addr = 0x20000000, Type = 0xFFFFFFF2)  returns 0x0000000A (0000ms, 0543ms total)
T1924 000:921 JLINK_Go() -- CPU_ReadMem(4 bytes @ 0xE0001000) (0005ms, 0548ms total)
T1924 000:926 JLINK_IsHalted()  returns FALSE (0001ms, 0549ms total)
T1924 000:944 JLINK_IsHalted() -- CPU_ReadMem(2 bytes @ 0x20000000)  returns TRUE (0009ms, 0557ms total)
T1924 000:954 JLINK_ReadReg(R15 (PC))  returns 0x20000000 (0000ms, 0548ms total)
T1924 000:954 JLINK_ClrBPEx(BPHandle = 0x0000000A)  returns 0x00 (0000ms, 0548ms total)
T1924 000:954 JLINK_ReadReg(R0)  returns 0x00000000 (0000ms, 0548ms total)
T1924 000:954 JLINK_WriteMem(0x200001B0, 0x0400 Bytes, ...) - Data: 28 2C F3 DB 00 BF 28 2C 01 DB 06 F0 1F FB 10 BD ... -- CPU_WriteMem(1024 bytes @ 0x200001B0)  returns 0x400 (0030ms, 0578ms total)
T1924 000:984 JLINK_WriteReg(R0, 0x08001800)  returns 0x00 (0000ms, 0578ms total)
T1924 000:984 JLINK_WriteReg(R1, 0x00000400)  returns 0x00 (0000ms, 0578ms total)
T1924 000:984 JLINK_WriteReg(R2, 0x200001B0)  returns 0x00 (0000ms, 0578ms total)
T1924 000:984 JLINK_WriteReg(R3, 0x00000000)  returns 0x00 (0000ms, 0578ms total)
T1924 000:984 JLINK_WriteReg(R4, 0x00000000)  returns 0x00 (0000ms, 0578ms total)
T1924 000:984 JLINK_WriteReg(R5, 0x00000000)  returns 0x00 (0000ms, 0578ms total)
T1924 000:984 JLINK_WriteReg(R6, 0x00000000)  returns 0x00 (0000ms, 0578ms total)
T1924 000:984 JLINK_WriteReg(R7, 0x00000000)  returns 0x00 (0000ms, 0578ms total)
T1924 000:985 JLINK_WriteReg(R8, 0x00000000)  returns 0x00 (0000ms, 0578ms total)
T1924 000:985 JLINK_WriteReg(R9, 0x200001A8)  returns 0x00 (0000ms, 0578ms total)
T1924 000:985 JLINK_WriteReg(R10, 0x00000000)  returns 0x00 (0000ms, 0578ms total)
T1924 000:985 JLINK_WriteReg(R11, 0x00000000)  returns 0x00 (0000ms, 0578ms total)
T1924 000:985 JLINK_WriteReg(R12, 0x00000000)  returns 0x00 (0000ms, 0578ms total)
T1924 000:985 JLINK_WriteReg(R13 (SP), 0x20001000)  returns 0x00 (0000ms, 0578ms total)
T1924 000:985 JLINK_WriteReg(R14, 0x20000001)  returns 0x00 (0000ms, 0578ms total)
T1924 000:985 JLINK_WriteReg(R15 (PC), 0x20000102)  returns 0x00 (0000ms, 0578ms total)
T1924 000:985 JLINK_WriteReg(XPSR, 0x01000000)  returns 0x00 (0000ms, 0578ms total)
T1924 000:985 JLINK_WriteReg(MSP, 0x20001000)  returns 0x00 (0000ms, 0578ms total)
T1924 000:985 JLINK_WriteReg(PSP, 0x20001000)  returns 0x00 (0000ms, 0578ms total)
T1924 000:985 JLINK_WriteReg(CFBP, 0x00000000)  returns 0x00 (0000ms, 0578ms total)
T1924 000:985 JLINK_SetBPEx(Addr = 0x20000000, Type = 0xFFFFFFF2)  returns 0x0000000B (0000ms, 0578ms total)
T1924 000:985 JLINK_Go() -- CPU_ReadMem(4 bytes @ 0xE0001000) (0005ms, 0583ms total)
T1924 000:990 JLINK_IsHalted()  returns FALSE (0001ms, 0584ms total)
T1924 001:003 JLINK_IsHalted() -- CPU_ReadMem(2 bytes @ 0x20000000)  returns TRUE (0010ms, 0593ms total)
T1924 001:013 JLINK_ReadReg(R15 (PC))  returns 0x20000000 (0000ms, 0583ms total)
T1924 001:013 JLINK_ClrBPEx(BPHandle = 0x0000000B)  returns 0x00 (0000ms, 0583ms total)
T1924 001:013 JLINK_ReadReg(R0)  returns 0x00000000 (0001ms, 0584ms total)
T1924 001:015 JLINK_WriteMem(0x200001B0, 0x0400 Bytes, ...) - Data: 1A 0E 00 20 39 0F 00 20 67 10 00 20 7F 11 00 20 ... -- CPU_WriteMem(1024 bytes @ 0x200001B0)  returns 0x400 (0033ms, 0617ms total)
T1924 001:048 JLINK_WriteReg(R0, 0x08001C00)  returns 0x00 (0000ms, 0617ms total)
T1924 001:048 JLINK_WriteReg(R1, 0x00000400)  returns 0x00 (0000ms, 0617ms total)
T1924 001:048 JLINK_WriteReg(R2, 0x200001B0)  returns 0x00 (0000ms, 0617ms total)
T1924 001:048 JLINK_WriteReg(R3, 0x00000000)  returns 0x00 (0001ms, 0618ms total)
T1924 001:049 JLINK_WriteReg(R4, 0x00000000)  returns 0x00 (0000ms, 0618ms total)
T1924 001:049 JLINK_WriteReg(R5, 0x00000000)  returns 0x00 (0000ms, 0618ms total)
T1924 001:049 JLINK_WriteReg(R6, 0x00000000)  returns 0x00 (0000ms, 0618ms total)
T1924 001:049 JLINK_WriteReg(R7, 0x00000000)  returns 0x00 (0000ms, 0618ms total)
T1924 001:049 JLINK_WriteReg(R8, 0x00000000)  returns 0x00 (0000ms, 0618ms total)
T1924 001:049 JLINK_WriteReg(R9, 0x200001A8)  returns 0x00 (0000ms, 0618ms total)
T1924 001:049 JLINK_WriteReg(R10, 0x00000000)  returns 0x00 (0000ms, 0618ms total)
T1924 001:049 JLINK_WriteReg(R11, 0x00000000)  returns 0x00 (0000ms, 0618ms total)
T1924 001:049 JLINK_WriteReg(R12, 0x00000000)  returns 0x00 (0000ms, 0618ms total)
T1924 001:049 JLINK_WriteReg(R13 (SP), 0x20001000)  returns 0x00 (0000ms, 0618ms total)
T1924 001:049 JLINK_WriteReg(R14, 0x20000001)  returns 0x00 (0001ms, 0619ms total)
T1924 001:050 JLINK_WriteReg(R15 (PC), 0x20000102)  returns 0x00 (0000ms, 0619ms total)
T1924 001:050 JLINK_WriteReg(XPSR, 0x01000000)  returns 0x00 (0000ms, 0619ms total)
T1924 001:050 JLINK_WriteReg(MSP, 0x20001000)  returns 0x00 (0000ms, 0619ms total)
T1924 001:050 JLINK_WriteReg(PSP, 0x20001000)  returns 0x00 (0000ms, 0619ms total)
T1924 001:050 JLINK_WriteReg(CFBP, 0x00000000)  returns 0x00 (0000ms, 0619ms total)
T1924 001:050 JLINK_SetBPEx(Addr = 0x20000000, Type = 0xFFFFFFF2)  returns 0x0000000C (0000ms, 0619ms total)
T1924 001:050 JLINK_Go() -- CPU_ReadMem(4 bytes @ 0xE0001000) (0005ms, 0624ms total)
T1924 001:055 JLINK_IsHalted()  returns FALSE (0001ms, 0625ms total)
T1924 001:070 JLINK_IsHalted() -- CPU_ReadMem(2 bytes @ 0x20000000)  returns TRUE (0009ms, 0633ms total)
T1924 001:079 JLINK_ReadReg(R15 (PC))  returns 0x20000000 (0000ms, 0624ms total)
T1924 001:080 JLINK_ClrBPEx(BPHandle = 0x0000000C)  returns 0x00 (0000ms, 0624ms total)
T1924 001:080 JLINK_ReadReg(R0)  returns 0x00000000 (0000ms, 0624ms total)
T1924 001:080 JLINK_WriteMem(0x200001B0, 0x0400 Bytes, ...) - Data: 0F F0 5E F9 60 1C C4 B2 04 2C F5 DB 28 46 0A F0 ... -- CPU_WriteMem(1024 bytes @ 0x200001B0)  returns 0x400 (0031ms, 0655ms total)
T1924 001:111 JLINK_WriteReg(R0, 0x08002000)  returns 0x00 (0000ms, 0655ms total)
T1924 001:111 JLINK_WriteReg(R1, 0x00000400)  returns 0x00 (0000ms, 0655ms total)
T1924 001:111 JLINK_WriteReg(R2, 0x200001B0)  returns 0x00 (0000ms, 0655ms total)
T1924 001:111 JLINK_WriteReg(R3, 0x00000000)  returns 0x00 (0000ms, 0655ms total)
T1924 001:111 JLINK_WriteReg(R4, 0x00000000)  returns 0x00 (0000ms, 0655ms total)
T1924 001:111 JLINK_WriteReg(R5, 0x00000000)  returns 0x00 (0000ms, 0655ms total)
T1924 001:111 JLINK_WriteReg(R6, 0x00000000)  returns 0x00 (0000ms, 0655ms total)
T1924 001:111 JLINK_WriteReg(R7, 0x00000000)  returns 0x00 (0000ms, 0655ms total)
T1924 001:111 JLINK_WriteReg(R8, 0x00000000)  returns 0x00 (0000ms, 0655ms total)
T1924 001:111 JLINK_WriteReg(R9, 0x200001A8)  returns 0x00 (0000ms, 0655ms total)
T1924 001:111 JLINK_WriteReg(R10, 0x00000000)  returns 0x00 (0000ms, 0655ms total)
T1924 001:111 JLINK_WriteReg(R11, 0x00000000)  returns 0x00 (0000ms, 0655ms total)
T1924 001:111 JLINK_WriteReg(R12, 0x00000000)  returns 0x00 (0000ms, 0655ms total)
T1924 001:111 JLINK_WriteReg(R13 (SP), 0x20001000)  returns 0x00 (0000ms, 0655ms total)
T1924 001:111 JLINK_WriteReg(R14, 0x20000001)  returns 0x00 (0000ms, 0655ms total)
T1924 001:111 JLINK_WriteReg(R15 (PC), 0x20000102)  returns 0x00 (0000ms, 0655ms total)
T1924 001:111 JLINK_WriteReg(XPSR, 0x01000000)  returns 0x00 (0000ms, 0655ms total)
T1924 001:111 JLINK_WriteReg(MSP, 0x20001000)  returns 0x00 (0000ms, 0655ms total)
T1924 001:111 JLINK_WriteReg(PSP, 0x20001000)  returns 0x00 (0000ms, 0655ms total)
T1924 001:111 JLINK_WriteReg(CFBP, 0x00000000)  returns 0x00 (0000ms, 0655ms total)
T1924 001:111 JLINK_SetBPEx(Addr = 0x20000000, Type = 0xFFFFFFF2)  returns 0x0000000D (0000ms, 0655ms total)
T1924 001:111 JLINK_Go() -- CPU_ReadMem(4 bytes @ 0xE0001000) (0005ms, 0660ms total)
T1924 001:116 JLINK_IsHalted()  returns FALSE (0001ms, 0661ms total)
T1924 001:128 JLINK_IsHalted()  returns FALSE (0000ms, 0660ms total)
T1924 001:130 JLINK_IsHalted() -- CPU_ReadMem(2 bytes @ 0x20000000)  returns TRUE (0009ms, 0669ms total)
T1924 001:139 JLINK_ReadReg(R15 (PC))  returns 0x20000000 (0000ms, 0660ms total)
T1924 001:139 JLINK_ClrBPEx(BPHandle = 0x0000000D)  returns 0x00 (0000ms, 0660ms total)
T1924 001:139 JLINK_ReadReg(R0)  returns 0x00000000 (0000ms, 0660ms total)
T1924 001:139 JLINK_WriteMem(0x200001B0, 0x0400 Bytes, ...) - Data: 74 43 6F 6E 74 22 3A 22 25 73 22 2C 00 00 00 00 ... -- CPU_WriteMem(1024 bytes @ 0x200001B0)  returns 0x400 (0031ms, 0691ms total)
T1924 001:170 JLINK_WriteReg(R0, 0x08002400)  returns 0x00 (0000ms, 0691ms total)
T1924 001:170 JLINK_WriteReg(R1, 0x00000400)  returns 0x00 (0000ms, 0691ms total)
T1924 001:170 JLINK_WriteReg(R2, 0x200001B0)  returns 0x00 (0000ms, 0691ms total)
T1924 001:170 JLINK_WriteReg(R3, 0x00000000)  returns 0x00 (0000ms, 0691ms total)
T1924 001:170 JLINK_WriteReg(R4, 0x00000000)  returns 0x00 (0000ms, 0691ms total)
T1924 001:170 JLINK_WriteReg(R5, 0x00000000)  returns 0x00 (0000ms, 0691ms total)
T1924 001:170 JLINK_WriteReg(R6, 0x00000000)  returns 0x00 (0000ms, 0691ms total)
T1924 001:170 JLINK_WriteReg(R7, 0x00000000)  returns 0x00 (0000ms, 0691ms total)
T1924 001:170 JLINK_WriteReg(R8, 0x00000000)  returns 0x00 (0000ms, 0691ms total)
T1924 001:170 JLINK_WriteReg(R9, 0x200001A8)  returns 0x00 (0000ms, 0691ms total)
T1924 001:170 JLINK_WriteReg(R10, 0x00000000)  returns 0x00 (0000ms, 0691ms total)
T1924 001:170 JLINK_WriteReg(R11, 0x00000000)  returns 0x00 (0000ms, 0691ms total)
T1924 001:170 JLINK_WriteReg(R12, 0x00000000)  returns 0x00 (0000ms, 0691ms total)
T1924 001:170 JLINK_WriteReg(R13 (SP), 0x20001000)  returns 0x00 (0000ms, 0691ms total)
T1924 001:170 JLINK_WriteReg(R14, 0x20000001)  returns 0x00 (0000ms, 0691ms total)
T1924 001:170 JLINK_WriteReg(R15 (PC), 0x20000102)  returns 0x00 (0000ms, 0691ms total)
T1924 001:170 JLINK_WriteReg(XPSR, 0x01000000)  returns 0x00 (0000ms, 0691ms total)
T1924 001:170 JLINK_WriteReg(MSP, 0x20001000)  returns 0x00 (0000ms, 0691ms total)
T1924 001:170 JLINK_WriteReg(PSP, 0x20001000)  returns 0x00 (0000ms, 0691ms total)
T1924 001:170 JLINK_WriteReg(CFBP, 0x00000000)  returns 0x00 (0000ms, 0691ms total)
T1924 001:170 JLINK_SetBPEx(Addr = 0x20000000, Type = 0xFFFFFFF2)  returns 0x0000000E (0000ms, 0691ms total)
T1924 001:170 JLINK_Go() -- CPU_ReadMem(4 bytes @ 0xE0001000) (0005ms, 0696ms total)
T1924 001:175 JLINK_IsHalted()  returns FALSE (0001ms, 0697ms total)
T1924 001:178 JLINK_IsHalted()  returns FALSE (0001ms, 0697ms total)
T1924 001:181 JLINK_IsHalted()  returns FALSE (0001ms, 0697ms total)
T1924 001:184 JLINK_IsHalted()  returns FALSE (0001ms, 0697ms total)
T1924 001:187 JLINK_IsHalted() -- CPU_ReadMem(2 bytes @ 0x20000000)  returns TRUE (0009ms, 0705ms total)
T1924 001:196 JLINK_ReadReg(R15 (PC))  returns 0x20000000 (0000ms, 0696ms total)
T1924 001:196 JLINK_ClrBPEx(BPHandle = 0x0000000E)  returns 0x00 (0001ms, 0697ms total)
T1924 001:197 JLINK_ReadReg(R0)  returns 0x00000000 (0000ms, 0697ms total)
T1924 001:200 JLINK_WriteMem(0x200001B0, 0x0400 Bytes, ...) - Data: 3A 22 25 73 22 2C 22 44 65 76 69 63 65 53 65 63 ... -- CPU_WriteMem(1024 bytes @ 0x200001B0)  returns 0x400 (0032ms, 0729ms total)
T1924 001:232 JLINK_WriteReg(R0, 0x08002800)  returns 0x00 (0000ms, 0729ms total)
T1924 001:232 JLINK_WriteReg(R1, 0x00000400)  returns 0x00 (0000ms, 0729ms total)
T1924 001:232 JLINK_WriteReg(R2, 0x200001B0)  returns 0x00 (0000ms, 0729ms total)
T1924 001:232 JLINK_WriteReg(R3, 0x00000000)  returns 0x00 (0000ms, 0729ms total)
T1924 001:232 JLINK_WriteReg(R4, 0x00000000)  returns 0x00 (0000ms, 0729ms total)
T1924 001:232 JLINK_WriteReg(R5, 0x00000000)  returns 0x00 (0000ms, 0729ms total)
T1924 001:232 JLINK_WriteReg(R6, 0x00000000)  returns 0x00 (0000ms, 0729ms total)
T1924 001:232 JLINK_WriteReg(R7, 0x00000000)  returns 0x00 (0000ms, 0729ms total)
T1924 001:232 JLINK_WriteReg(R8, 0x00000000)  returns 0x00 (0000ms, 0729ms total)
T1924 001:232 JLINK_WriteReg(R9, 0x200001A8)  returns 0x00 (0000ms, 0729ms total)
T1924 001:232 JLINK_WriteReg(R10, 0x00000000)  returns 0x00 (0000ms, 0729ms total)
T1924 001:232 JLINK_WriteReg(R11, 0x00000000)  returns 0x00 (0000ms, 0729ms total)
T1924 001:232 JLINK_WriteReg(R12, 0x00000000)  returns 0x00 (0000ms, 0729ms total)
T1924 001:232 JLINK_WriteReg(R13 (SP), 0x20001000)  returns 0x00 (0000ms, 0729ms total)
T1924 001:232 JLINK_WriteReg(R14, 0x20000001)  returns 0x00 (0000ms, 0729ms total)
T1924 001:232 JLINK_WriteReg(R15 (PC), 0x20000102)  returns 0x00 (0000ms, 0729ms total)
T1924 001:232 JLINK_WriteReg(XPSR, 0x01000000)  returns 0x00 (0000ms, 0729ms total)
T1924 001:232 JLINK_WriteReg(MSP, 0x20001000)  returns 0x00 (0000ms, 0729ms total)
T1924 001:232 JLINK_WriteReg(PSP, 0x20001000)  returns 0x00 (0000ms, 0729ms total)
T1924 001:232 JLINK_WriteReg(CFBP, 0x00000000)  returns 0x00 (0000ms, 0729ms total)
T1924 001:232 JLINK_SetBPEx(Addr = 0x20000000, Type = 0xFFFFFFF2)  returns 0x0000000F (0000ms, 0729ms total)
T1924 001:232 JLINK_Go() -- CPU_ReadMem(4 bytes @ 0xE0001000) (0005ms, 0734ms total)
T1924 001:237 JLINK_IsHalted()  returns FALSE (0001ms, 0735ms total)
T1924 001:246 JLINK_IsHalted()  returns FALSE (0001ms, 0735ms total)
T1924 001:249 JLINK_IsHalted() -- CPU_ReadMem(2 bytes @ 0x20000000)  returns TRUE (0009ms, 0743ms total)
T1924 001:258 JLINK_ReadReg(R15 (PC))  returns 0x20000000 (0000ms, 0734ms total)
T1924 001:258 JLINK_ClrBPEx(BPHandle = 0x0000000F)  returns 0x00 (0000ms, 0734ms total)
T1924 001:258 JLINK_ReadReg(R0)  returns 0x00000000 (0000ms, 0734ms total)
T1924 001:258 JLINK_WriteMem(0x200001B0, 0x0400 Bytes, ...) - Data: 40 1C 83 F8 80 00 18 46 81 54 0E F0 BF FA 13 49 ... -- CPU_WriteMem(1024 bytes @ 0x200001B0)  returns 0x400 (0031ms, 0765ms total)
T1924 001:289 JLINK_WriteReg(R0, 0x08002C00)  returns 0x00 (0000ms, 0765ms total)
T1924 001:289 JLINK_WriteReg(R1, 0x00000400)  returns 0x00 (0000ms, 0765ms total)
T1924 001:289 JLINK_WriteReg(R2, 0x200001B0)  returns 0x00 (0000ms, 0765ms total)
T1924 001:289 JLINK_WriteReg(R3, 0x00000000)  returns 0x00 (0000ms, 0765ms total)
T1924 001:289 JLINK_WriteReg(R4, 0x00000000)  returns 0x00 (0000ms, 0765ms total)
T1924 001:289 JLINK_WriteReg(R5, 0x00000000)  returns 0x00 (0000ms, 0765ms total)
T1924 001:289 JLINK_WriteReg(R6, 0x00000000)  returns 0x00 (0000ms, 0765ms total)
T1924 001:289 JLINK_WriteReg(R7, 0x00000000)  returns 0x00 (0000ms, 0765ms total)
T1924 001:289 JLINK_WriteReg(R8, 0x00000000)  returns 0x00 (0000ms, 0765ms total)
T1924 001:289 JLINK_WriteReg(R9, 0x200001A8)  returns 0x00 (0000ms, 0765ms total)
T1924 001:289 JLINK_WriteReg(R10, 0x00000000)  returns 0x00 (0000ms, 0765ms total)
T1924 001:289 JLINK_WriteReg(R11, 0x00000000)  returns 0x00 (0000ms, 0765ms total)
T1924 001:289 JLINK_WriteReg(R12, 0x00000000)  returns 0x00 (0000ms, 0765ms total)
T1924 001:289 JLINK_WriteReg(R13 (SP), 0x20001000)  returns 0x00 (0000ms, 0765ms total)
T1924 001:289 JLINK_WriteReg(R14, 0x20000001)  returns 0x00 (0000ms, 0765ms total)
T1924 001:289 JLINK_WriteReg(R15 (PC), 0x20000102)  returns 0x00 (0000ms, 0765ms total)
T1924 001:289 JLINK_WriteReg(XPSR, 0x01000000)  returns 0x00 (0000ms, 0765ms total)
T1924 001:289 JLINK_WriteReg(MSP, 0x20001000)  returns 0x00 (0000ms, 0765ms total)
T1924 001:289 JLINK_WriteReg(PSP, 0x20001000)  returns 0x00 (0000ms, 0765ms total)
T1924 001:289 JLINK_WriteReg(CFBP, 0x00000000)  returns 0x00 (0000ms, 0765ms total)
T1924 001:289 JLINK_SetBPEx(Addr = 0x20000000, Type = 0xFFFFFFF2)  returns 0x00000010 (0000ms, 0765ms total)
T1924 001:289 JLINK_Go() -- CPU_ReadMem(4 bytes @ 0xE0001000) (0005ms, 0770ms total)
T1924 001:294 JLINK_IsHalted()  returns FALSE (0001ms, 0771ms total)
T1924 001:298 JLINK_IsHalted()  returns FALSE (0001ms, 0771ms total)
T1924 001:301 JLINK_IsHalted()  returns FALSE (0001ms, 0771ms total)
T1924 001:304 JLINK_IsHalted()  returns FALSE (0001ms, 0771ms total)
T1924 001:307 JLINK_IsHalted() -- CPU_ReadMem(2 bytes @ 0x20000000)  returns TRUE (0009ms, 0779ms total)
T1924 001:316 JLINK_ReadReg(R15 (PC))  returns 0x20000000 (0000ms, 0770ms total)
